
T40C4 000:297 SEGGER J-Link V4.96d Log File (0001ms, 0267ms total)
T40C4 000:297 DLL Compiled: Jan 29 2015 11:45:37 (0001ms, 0267ms total)
T40C4 000:297 Logging started @ 2020-07-10 17:43 (0001ms, 0267ms total)
T40C4 000:298 JLINK_SetWarnOutHandler(...) (0000ms, 0267ms total)
T40C4 000:298 JLINK_OpenEx(...)
Firmware: J-Link V9 compiled Dec  2 2016 15:35:20
Hardware: V9.20
S/N: 269200585
Feature(s): GDB, RDI, FlashBP, FlashDL, JFlash, RDDI  returns O.K. (0267ms, 0534ms total)
T40C4 000:565 JLINK_SetErrorOutHandler(...) (0000ms, 0534ms total)
T40C4 000:566 JLINK_ExecCommand("ProjectFile = "C:\Users\MarkV\Desktop\myGit\RP2020_Infantry\RP2020_Infantry\Project\JLinkSettings.ini"", ...)Device "UNSPECIFIED" selected.  returns 0x00 (0005ms, 0539ms total)
T40C4 000:575 JLINK_ExecCommand("Device = STM32F407VE", ...)Device "STM32F407VE" selected.  returns 0x00 (0015ms, 0554ms total)
T40C4 000:590 JLINK_ExecCommand("DisableConnectionTimeout", ...)  returns 0x01 (0000ms, 0554ms total)
T40C4 000:590 JLINK_GetHardwareVersion()  returns 0x16760 (0000ms, 0554ms total)
T40C4 000:590 JLINK_GetDLLVersion()  returns 49604 (0000ms, 0554ms total)
T40C4 000:590 JLINK_GetFirmwareString(...) (0000ms, 0554ms total)
T40C4 000:620 JLINK_GetDLLVersion()  returns 49604 (0000ms, 0554ms total)
T40C4 000:620 JLINK_GetCompileDateTime() (0000ms, 0554ms total)
T40C4 000:630 JLINK_GetFirmwareString(...) (0000ms, 0554ms total)
T40C4 000:636 JLINK_GetHardwareVersion()  returns 0x16760 (0000ms, 0554ms total)
T40C4 000:657 JLINK_TIF_Select(JLINKARM_TIF_SWD)  returns 0x00 (0001ms, 0555ms total)
T40C4 000:658 JLINK_SetSpeed(5000) (0000ms, 0555ms total)
T40C4 000:658 JLINK_GetId() >0x108 TIF>Found SWD-DP with ID 0x2BA01477 >0x0D TIF> >0x28 TIF> >0x0D TIF> >0x28 TIF> >0x0D TIF> >0x21 TIF> >0x0D TIF> >0x28 TIF> >0x0D TIF> >0x28 TIF> >0x0D TIF> >0x28 TIF> >0x0D TIF> >0x21 TIF> >0x0D TIF> >0x21 TIF> >0x0D TIF> >0x28 TIF> >0x0D TIF> >0x21 TIF> >0x0D TIF> >0x21 TIF> >0x0D TIF> >0x28 TIF> >0x0D TIF> >0x21 TIF> >0x0D TIF> >0x21 TIF> >0x108 TIF>Found SWD-DP with ID 0x2BA01477 >0x0D TIF> >0x21 TIF> >0x0D TIF> >0x28 TIF> >0x0D TIF> >0x28 TIF> >0x0D TIF> >0x21 TIF>
 >0x0D TIF> >0x28 TIF> >0x0D TIF> >0x21 TIF> >0x0D TIF> >0x21 TIF> >0x0D TIF> >0x21 TIF> >0x0D TIF> >0x21 TIF> >0x0D TIF> >0x28 TIF> >0x0D TIF> >0x28 TIF> >0x0D TIF> >0x21 TIF> >0x0D TIF> >0x28 TIF> >0x0D TIF> >0x28 TIF> >0x0D TIF> >0x28 TIF> >0x0D TIF> >0x21 TIF> >0x0D TIF> >0x21 TIF> >0x0D TIF> >0x28 TIF> >0x0D TIF> >0x21 TIF> >0x0D TIF> >0x21 TIF>Found Cortex-M4 r0p1, Little endian. -- CPU_WriteMem(4 bytes @ 0xE0002000) -- CPU_ReadMem(4 bytes @ 0xE000EDF0) -- CPU_ReadMem(4 bytes @ 0xE0002000)
FPUnit: 6 code (BP) slots and 2 literal slots -- CPU_ReadMem(4 bytes @ 0xE000EDFC) -- CPU_ReadMem(4 bytes @ 0xE0001000) -- CPU_WriteMem(4 bytes @ 0xE0001000) -- CPU_ReadMem(4 bytes @ 0xE000ED88) -- CPU_WriteMem(4 bytes @ 0xE000ED88) -- CPU_ReadMem(4 bytes @ 0xE000ED88) -- CPU_WriteMem(4 bytes @ 0xE000ED88) -- CPU_ReadMem(4 bytes @ 0xE00FF010)TPIU fitted. -- CPU_ReadMem(4 bytes @ 0xE00FF014)ETM fitted. -- CPU_ReadMem(4 bytes @ 0xE00FF018) >0x0D TIF> >0x21 TIF>  returns 0x2BA01477 (0040ms, 0595ms total)
T40C4 000:698 JLINK_GetDLLVersion()  returns 49604 (0000ms, 0595ms total)
T40C4 000:698 JLINK_CORE_GetFound()  returns 0xE0000FF (0000ms, 0595ms total)
T40C4 000:698 JLINK_GetDebugInfo(0x100) -- Value=0xE00FF003  returns 0x00 (0000ms, 0595ms total)
T40C4 000:703 JLINK_ReadMem (0xE00FF000, 0x0020 Bytes, ...) -- CPU is running -- CPU_ReadMem(32 bytes @ 0xE00FF000) - Data: 03 F0 F0 FF 03 20 F0 FF 03 30 F0 FF 03 10 F0 FF ...  returns 0x00 (0000ms, 0595ms total)
T40C4 000:703 JLINK_ReadMem (0xE000EFF0, 0x0010 Bytes, ...) -- CPU is running -- CPU_ReadMem(16 bytes @ 0xE000EFF0) - Data: 0D 00 00 00 E0 00 00 00 05 00 00 00 B1 00 00 00  returns 0x00 (0001ms, 0596ms total)
T40C4 000:704 JLINK_ReadMem (0xE000EFD0, 0x0020 Bytes, ...) -- CPU is running -- CPU_ReadMem(32 bytes @ 0xE000EFD0) - Data: 04 00 00 00 00 00 00 00 00 00 00 00 00 00 00 00 ...  returns 0x00 (0000ms, 0596ms total)
T40C4 000:704 JLINK_ReadMem (0xE0001FF0, 0x0010 Bytes, ...) -- CPU is running -- CPU_ReadMem(16 bytes @ 0xE0001FF0) - Data: 0D 00 00 00 E0 00 00 00 05 00 00 00 B1 00 00 00  returns 0x00 (0000ms, 0596ms total)
T40C4 000:704 JLINK_ReadMem (0xE0001FD0, 0x0020 Bytes, ...) -- CPU is running -- CPU_ReadMem(32 bytes @ 0xE0001FD0) - Data: 04 00 00 00 00 00 00 00 00 00 00 00 00 00 00 00 ...  returns 0x00 (0001ms, 0597ms total)
T40C4 000:705 JLINK_ReadMem (0xE0002FF0, 0x0010 Bytes, ...) -- CPU is running -- CPU_ReadMem(16 bytes @ 0xE0002FF0) - Data: 0D 00 00 00 E0 00 00 00 05 00 00 00 B1 00 00 00  returns 0x00 (0000ms, 0597ms total)
T40C4 000:705 JLINK_ReadMem (0xE0002FD0, 0x0020 Bytes, ...) -- CPU is running -- CPU_ReadMem(32 bytes @ 0xE0002FD0) - Data: 04 00 00 00 00 00 00 00 00 00 00 00 00 00 00 00 ...  returns 0x00 (0001ms, 0598ms total)
T40C4 000:706 JLINK_ReadMem (0xE0000FF0, 0x0010 Bytes, ...) -- CPU is running -- CPU_ReadMem(16 bytes @ 0xE0000FF0) - Data: 0D 00 00 00 E0 00 00 00 05 00 00 00 B1 00 00 00  returns 0x00 (0000ms, 0598ms total)
T40C4 000:706 JLINK_ReadMem (0xE0000FD0, 0x0020 Bytes, ...) -- CPU is running -- CPU_ReadMem(32 bytes @ 0xE0000FD0) - Data: 04 00 00 00 00 00 00 00 00 00 00 00 00 00 00 00 ...  returns 0x00 (0000ms, 0598ms total)
T40C4 000:706 JLINK_ReadMem (0xE0040FF0, 0x0010 Bytes, ...) -- CPU is running -- CPU_ReadMem(16 bytes @ 0xE0040FF0) - Data: 0D 00 00 00 90 00 00 00 05 00 00 00 B1 00 00 00  returns 0x00 (0001ms, 0599ms total)
T40C4 000:707 JLINK_ReadMem (0xE0040FD0, 0x0020 Bytes, ...) -- CPU is running -- CPU_ReadMem(32 bytes @ 0xE0040FD0) - Data: 04 00 00 00 00 00 00 00 00 00 00 00 00 00 00 00 ...  returns 0x00 (0000ms, 0599ms total)
T40C4 000:707 JLINK_ReadMem (0xE0041FF0, 0x0010 Bytes, ...) -- CPU is running -- CPU_ReadMem(16 bytes @ 0xE0041FF0) - Data: 0D 00 00 00 90 00 00 00 05 00 00 00 B1 00 00 00  returns 0x00 (0001ms, 0600ms total)
T40C4 000:708 JLINK_ReadMem (0xE0041FD0, 0x0020 Bytes, ...) -- CPU is running -- CPU_ReadMem(32 bytes @ 0xE0041FD0) - Data: 04 00 00 00 00 00 00 00 00 00 00 00 00 00 00 00 ...  returns 0x00 (0000ms, 0600ms total)
T40C4 000:708 JLINK_ReadMemU32(0xE000EF40, 0x0001 Items, ...) -- CPU is running -- CPU_ReadMem(4 bytes @ 0xE000EF40) - Data: 21 00 11 10  returns 0x01 (0001ms, 0601ms total)
T40C4 000:709 JLINK_ReadMemU32(0xE000EF44, 0x0001 Items, ...) -- CPU is running -- CPU_ReadMem(4 bytes @ 0xE000EF44) - Data: 11 00 00 11  returns 0x01 (0000ms, 0601ms total)
T40C4 000:709 JLINK_ReadMemU32(0xE000ED00, 0x0001 Items, ...) -- CPU is running -- CPU_ReadMem(4 bytes @ 0xE000ED00) - Data: 41 C2 0F 41  returns 0x01 (0001ms, 0602ms total)
T40C4 000:710 JLINK_SetResetType(JLINKARM_RESET_TYPE_NORMAL)  returns JLINKARM_RESET_TYPE_NORMAL (0000ms, 0602ms total)
T40C4 000:710 JLINK_Reset() -- CPU is running -- CPU_WriteMem(4 bytes @ 0xE000EDF0) -- CPU is running -- CPU_WriteMem(4 bytes @ 0xE000EDFC) >0x35 TIF> -- CPU is running -- CPU_WriteMem(4 bytes @ 0xE000ED0C) -- CPU is running -- CPU_ReadMem(4 bytes @ 0xE000EDF0) -- CPU is running -- CPU_ReadMem(4 bytes @ 0xE000EDF0) -- CPU is running -- CPU_WriteMem(4 bytes @ 0xE000EDF0) -- CPU is running -- CPU_WriteMem(4 bytes @ 0xE000EDFC) -- CPU is running -- CPU_ReadMem(4 bytes @ 0xE000EDF0)
 -- CPU_WriteMem(4 bytes @ 0xE0002000) -- CPU_ReadMem(4 bytes @ 0xE000EDFC) -- CPU_ReadMem(4 bytes @ 0xE0001000) (0013ms, 0615ms total)
T40C4 000:723 JLINK_Halt()  returns 0x00 (0000ms, 0615ms total)
T40C4 000:723 JLINK_IsHalted()  returns TRUE (0000ms, 0615ms total)
T40C4 000:723 JLINK_ReadMemU32(0xE000EDF0, 0x0001 Items, ...) -- CPU_ReadMem(4 bytes @ 0xE000EDF0) - Data: 03 00 03 00  returns 0x01 (0001ms, 0616ms total)
T40C4 000:724 JLINK_WriteU32(0xE000EDF0, 0xA05F0003) -- CPU_WriteMem(4 bytes @ 0xE000EDF0)  returns 0x00 (0000ms, 0616ms total)
T40C4 000:724 JLINK_WriteU32(0xE000EDFC, 0x01000000) -- CPU_WriteMem(4 bytes @ 0xE000EDFC)  returns 0x00 (0000ms, 0616ms total)
T40C4 000:740 JLINK_GetHWStatus(...)  returns 0x00 (0001ms, 0617ms total)
T40C4 000:752 JLINK_GetNumBPUnits(Type = 0xFFFFFF00)  returns 0x06 (0000ms, 0617ms total)
T40C4 000:752 JLINK_GetNumBPUnits(Type = 0xF0)  returns 0x2000 (0000ms, 0617ms total)
T40C4 000:752 JLINK_GetNumWPUnits()  returns 0x04 (0000ms, 0617ms total)
T40C4 000:767 JLINK_GetSpeed()  returns 0xFA0 (0000ms, 0617ms total)
T40C4 000:778 JLINK_ReadMemU32(0xE000E004, 0x0001 Items, ...) -- CPU_ReadMem(4 bytes @ 0xE000E004) - Data: 02 00 00 00  returns 0x01 (0000ms, 0617ms total)
T40C4 000:778 JLINK_ReadMemU32(0xE000E004, 0x0001 Items, ...) -- CPU_ReadMem(4 bytes @ 0xE000E004) - Data: 02 00 00 00  returns 0x01 (0000ms, 0617ms total)
T40C4 000:778 JLINK_WriteMem(0xE0001000, 0x001C Bytes, ...) - Data: 01 00 00 00 00 00 00 00 00 00 00 00 00 00 00 00 ... -- CPU_WriteMem(28 bytes @ 0xE0001000)  returns 0x1C (0001ms, 0618ms total)
T40C4 000:779 JLINK_ReadMem (0xE0001000, 0x001C Bytes, ...) -- CPU_ReadMem(28 bytes @ 0xE0001000) - Data: 01 00 00 40 00 00 00 00 00 00 00 00 00 00 00 00 ...  returns 0x00 (0001ms, 0619ms total)
T40C4 000:780 JLINK_Halt()  returns 0x00 (0000ms, 0619ms total)
T40C4 000:780 JLINK_IsHalted()  returns TRUE (0000ms, 0619ms total)
T40C4 000:782 JLINK_WriteMem(0x20000000, 0x0188 Bytes, ...) - Data: 00 BE 0A E0 0D 78 2D 06 68 40 08 24 40 00 00 D3 ... -- CPU_WriteMem(392 bytes @ 0x20000000)  returns 0x188 (0002ms, 0621ms total)
T40C4 000:784 JLINK_WriteReg(R0, 0x08000000)  returns 0x00 (0000ms, 0621ms total)
T40C4 000:784 JLINK_WriteReg(R1, 0x00B71B00)  returns 0x00 (0000ms, 0621ms total)
T40C4 000:784 JLINK_WriteReg(R2, 0x00000001)  returns 0x00 (0000ms, 0621ms total)
T40C4 000:784 JLINK_WriteReg(R3, 0x00000000)  returns 0x00 (0000ms, 0621ms total)
T40C4 000:784 JLINK_WriteReg(R4, 0x00000000)  returns 0x00 (0000ms, 0621ms total)
T40C4 000:784 JLINK_WriteReg(R5, 0x00000000)  returns 0x00 (0000ms, 0621ms total)
T40C4 000:784 JLINK_WriteReg(R6, 0x00000000)  returns 0x00 (0001ms, 0622ms total)
T40C4 000:785 JLINK_WriteReg(R7, 0x00000000)  returns 0x00 (0000ms, 0622ms total)
T40C4 000:785 JLINK_WriteReg(R8, 0x00000000)  returns 0x00 (0000ms, 0622ms total)
T40C4 000:785 JLINK_WriteReg(R9, 0x20000184)  returns 0x00 (0000ms, 0622ms total)
T40C4 000:785 JLINK_WriteReg(R10, 0x00000000)  returns 0x00 (0000ms, 0622ms total)
T40C4 000:785 JLINK_WriteReg(R11, 0x00000000)  returns 0x00 (0000ms, 0622ms total)
T40C4 000:785 JLINK_WriteReg(R12, 0x00000000)  returns 0x00 (0000ms, 0622ms total)
T40C4 000:785 JLINK_WriteReg(R13 (SP), 0x20001000)  returns 0x00 (0000ms, 0622ms total)
T40C4 000:785 JLINK_WriteReg(R14, 0x20000001)  returns 0x00 (0000ms, 0622ms total)
T40C4 000:785 JLINK_WriteReg(R15 (PC), 0x2000005E)  returns 0x00 (0000ms, 0622ms total)
T40C4 000:785 JLINK_WriteReg(XPSR, 0x01000000)  returns 0x00 (0000ms, 0622ms total)
T40C4 000:785 JLINK_WriteReg(MSP, 0x20001000)  returns 0x00 (0000ms, 0622ms total)
T40C4 000:785 JLINK_WriteReg(PSP, 0x20001000)  returns 0x00 (0000ms, 0622ms total)
T40C4 000:785 JLINK_WriteReg(CFBP, 0x00000000)  returns 0x00 (0000ms, 0622ms total)
T40C4 000:785 JLINK_SetBPEx(Addr = 0x20000000, Type = 0xFFFFFFF2) -- CPU_ReadMem(2 bytes @ 0x20000000)  returns 0x00000001 (0001ms, 0623ms total)
T40C4 000:786 JLINK_Go() -- CPU_WriteMem(2 bytes @ 0x20000000) -- CPU_WriteMem(4 bytes @ 0xE0002008) -- CPU_WriteMem(4 bytes @ 0xE000200C) -- CPU_WriteMem(4 bytes @ 0xE0002010) -- CPU_WriteMem(4 bytes @ 0xE0002014) -- CPU_WriteMem(4 bytes @ 0xE0002018) -- CPU_WriteMem(4 bytes @ 0xE000201C) -- CPU_WriteMem(4 bytes @ 0xE0001004) (0003ms, 0626ms total)
T40C4 000:789 JLINK_IsHalted() -- CPU_ReadMem(2 bytes @ 0x20000000)  returns TRUE (0003ms, 0629ms total)
T40C4 000:792 JLINK_ReadReg(R15 (PC))  returns 0x20000000 (0000ms, 0626ms total)
T40C4 000:792 JLINK_ClrBPEx(BPHandle = 0x00000001)  returns 0x00 (0000ms, 0626ms total)
T40C4 000:792 JLINK_ReadReg(R0)  returns 0x00000000 (0000ms, 0626ms total)
T40C4 000:792 JLINK_WriteReg(R0, 0x08000000)  returns 0x00 (0000ms, 0626ms total)
T40C4 000:792 JLINK_WriteReg(R1, 0x00004000)  returns 0x00 (0000ms, 0626ms total)
T40C4 000:792 JLINK_WriteReg(R2, 0x000000FF)  returns 0x00 (0000ms, 0626ms total)
T40C4 000:792 JLINK_WriteReg(R3, 0x00000000)  returns 0x00 (0000ms, 0626ms total)
T40C4 000:792 JLINK_WriteReg(R4, 0x00000000)  returns 0x00 (0000ms, 0626ms total)
T40C4 000:792 JLINK_WriteReg(R5, 0x00000000)  returns 0x00 (0000ms, 0626ms total)
T40C4 000:792 JLINK_WriteReg(R6, 0x00000000)  returns 0x00 (0000ms, 0626ms total)
T40C4 000:793 JLINK_WriteReg(R7, 0x00000000)  returns 0x00 (0000ms, 0627ms total)
T40C4 000:793 JLINK_WriteReg(R8, 0x00000000)  returns 0x00 (0000ms, 0627ms total)
T40C4 000:793 JLINK_WriteReg(R9, 0x20000184)  returns 0x00 (0000ms, 0627ms total)
T40C4 000:793 JLINK_WriteReg(R10, 0x00000000)  returns 0x00 (0000ms, 0627ms total)
T40C4 000:793 JLINK_WriteReg(R11, 0x00000000)  returns 0x00 (0000ms, 0627ms total)
T40C4 000:793 JLINK_WriteReg(R12, 0x00000000)  returns 0x00 (0000ms, 0627ms total)
T40C4 000:793 JLINK_WriteReg(R13 (SP), 0x20001000)  returns 0x00 (0000ms, 0627ms total)
T40C4 000:793 JLINK_WriteReg(R14, 0x20000001)  returns 0x00 (0000ms, 0627ms total)
T40C4 000:793 JLINK_WriteReg(R15 (PC), 0x20000020)  returns 0x00 (0000ms, 0627ms total)
T40C4 000:793 JLINK_WriteReg(XPSR, 0x01000000)  returns 0x00 (0000ms, 0627ms total)
T40C4 000:793 JLINK_WriteReg(MSP, 0x20001000)  returns 0x00 (0000ms, 0627ms total)
T40C4 000:793 JLINK_WriteReg(PSP, 0x20001000)  returns 0x00 (0000ms, 0627ms total)
T40C4 000:793 JLINK_WriteReg(CFBP, 0x00000000)  returns 0x00 (0000ms, 0627ms total)
T40C4 000:793 JLINK_SetBPEx(Addr = 0x20000000, Type = 0xFFFFFFF2)  returns 0x00000002 (0000ms, 0627ms total)
T40C4 000:793 JLINK_Go() (0001ms, 0628ms total)
T40C4 000:794 JLINK_IsHalted() -- CPU_ReadMem(2 bytes @ 0x20000000)  returns TRUE (0002ms, 0630ms total)
T40C4 000:796 JLINK_ReadReg(R15 (PC))  returns 0x20000000 (0000ms, 0628ms total)
T40C4 000:796 JLINK_ClrBPEx(BPHandle = 0x00000002)  returns 0x00 (0000ms, 0628ms total)
T40C4 000:796 JLINK_ReadReg(R0)  returns 0x00000001 (0000ms, 0628ms total)
T40C4 000:796 JLINK_WriteReg(R0, 0x08000000)  returns 0x00 (0000ms, 0628ms total)
T40C4 000:796 JLINK_WriteReg(R1, 0x00004000)  returns 0x00 (0000ms, 0628ms total)
T40C4 000:796 JLINK_WriteReg(R2, 0x000000FF)  returns 0x00 (0000ms, 0628ms total)
T40C4 000:796 JLINK_WriteReg(R3, 0x00000000)  returns 0x00 (0000ms, 0628ms total)
T40C4 000:796 JLINK_WriteReg(R4, 0x00000000)  returns 0x00 (0000ms, 0628ms total)
T40C4 000:796 JLINK_WriteReg(R5, 0x00000000)  returns 0x00 (0000ms, 0628ms total)
T40C4 000:796 JLINK_WriteReg(R6, 0x00000000)  returns 0x00 (0000ms, 0628ms total)
T40C4 000:796 JLINK_WriteReg(R7, 0x00000000)  returns 0x00 (0000ms, 0628ms total)
T40C4 000:796 JLINK_WriteReg(R8, 0x00000000)  returns 0x00 (0000ms, 0628ms total)
T40C4 000:796 JLINK_WriteReg(R9, 0x20000184)  returns 0x00 (0000ms, 0628ms total)
T40C4 000:796 JLINK_WriteReg(R10, 0x00000000)  returns 0x00 (0000ms, 0628ms total)
T40C4 000:796 JLINK_WriteReg(R11, 0x00000000)  returns 0x00 (0000ms, 0628ms total)
T40C4 000:796 JLINK_WriteReg(R12, 0x00000000)  returns 0x00 (0000ms, 0628ms total)
T40C4 000:796 JLINK_WriteReg(R13 (SP), 0x20001000)  returns 0x00 (0000ms, 0628ms total)
T40C4 000:796 JLINK_WriteReg(R14, 0x20000001)  returns 0x00 (0000ms, 0628ms total)
T40C4 000:796 JLINK_WriteReg(R15 (PC), 0x200000C6)  returns 0x00 (0000ms, 0628ms total)
T40C4 000:796 JLINK_WriteReg(XPSR, 0x01000000)  returns 0x00 (0000ms, 0628ms total)
T40C4 000:796 JLINK_WriteReg(MSP, 0x20001000)  returns 0x00 (0000ms, 0628ms total)
T40C4 000:796 JLINK_WriteReg(PSP, 0x20001000)  returns 0x00 (0000ms, 0628ms total)
T40C4 000:796 JLINK_WriteReg(CFBP, 0x00000000)  returns 0x00 (0000ms, 0628ms total)
T40C4 000:796 JLINK_SetBPEx(Addr = 0x20000000, Type = 0xFFFFFFF2)  returns 0x00000003 (0000ms, 0628ms total)
T40C4 000:796 JLINK_Go() (0001ms, 0629ms total)
T40C4 000:797 JLINK_IsHalted()  returns FALSE (0001ms, 0630ms total)
T40C4 000:873 JLINK_ReadReg(R0) -- CPU is running
  ***** Error: Can not read register 0 (R0) while CPU is running  returns 0x00000000 (0001ms, 0630ms total)
T40C4 000:880 JLINK_ReadReg(R1) -- CPU is running
  ***** Error: Can not read register 1 (R1) while CPU is running  returns 0x00000000 (0000ms, 0630ms total)
T40C4 000:883 JLINK_ReadReg(R2) -- CPU is running
  ***** Error: Can not read register 2 (R2) while CPU is running  returns 0x00000000 (0000ms, 0630ms total)
T40C4 000:888 JLINK_ReadReg(R3) -- CPU is running
  ***** Error: Can not read register 3 (R3) while CPU is running  returns 0x00000000 (0000ms, 0630ms total)
T40C4 000:892 JLINK_ReadReg(R4) -- CPU is running
  ***** Error: Can not read register 4 (R4) while CPU is running  returns 0x00000000 (0000ms, 0630ms total)
T40C4 000:895 JLINK_ReadReg(R5) -- CPU is running
  ***** Error: Can not read register 5 (R5) while CPU is running  returns 0x00000000 (0001ms, 0631ms total)
T40C4 000:900 JLINK_ReadReg(R6) -- CPU is running
  ***** Error: Can not read register 6 (R6) while CPU is running  returns 0x00000000 (0000ms, 0631ms total)
T40C4 000:904 JLINK_ReadReg(R7) -- CPU is running
  ***** Error: Can not read register 7 (R7) while CPU is running  returns 0x00000000 (0000ms, 0631ms total)
T40C4 000:907 JLINK_ReadReg(R8) -- CPU is running
  ***** Error: Can not read register 8 (R8) while CPU is running  returns 0x00000000 (0001ms, 0632ms total)
T40C4 000:914 JLINK_ReadReg(R9) -- CPU is running
  ***** Error: Can not read register 9 (R9) while CPU is running  returns 0x00000000 (0000ms, 0632ms total)
T40C4 000:917 JLINK_ReadReg(R10) -- CPU is running
  ***** Error: Can not read register 10 (R10) while CPU is running  returns 0x00000000 (0000ms, 0632ms total)
T40C4 000:924 JLINK_ReadReg(R11) -- CPU is running
  ***** Error: Can not read register 11 (R11) while CPU is running  returns 0x00000000 (0000ms, 0632ms total)
T40C4 000:928 JLINK_ReadReg(R12) -- CPU is running
  ***** Error: Can not read register 12 (R12) while CPU is running  returns 0x00000000 (0000ms, 0632ms total)
T40C4 000:930 JLINK_ReadReg(R13 (SP)) -- CPU is running
  ***** Error: Can not read register 13 (R13) while CPU is running  returns 0x00000000 (0000ms, 0632ms total)
T40C4 000:934 JLINK_ReadReg(R14) -- CPU is running
  ***** Error: Can not read register 14 (R14) while CPU is running  returns 0x00000000 (0000ms, 0632ms total)
T40C4 000:939 JLINK_ReadReg(R15 (PC)) -- CPU is running
  ***** Error: Can not read register 15 (R15) while CPU is running  returns 0x00000000 (0000ms, 0632ms total)
T40C4 000:944 JLINK_ReadReg(XPSR) -- CPU is running
  ***** Error: Can not read register 16 (XPSR) while CPU is running  returns 0x00000000 (0000ms, 0632ms total)
T40C4 000:947 JLINK_ReadReg(MSP) -- CPU is running
  ***** Error: Can not read register 17 (MSP) while CPU is running  returns 0x00000000 (0000ms, 0632ms total)
T40C4 000:951 JLINK_ReadReg(PSP) -- CPU is running
  ***** Error: Can not read register 18 (PSP) while CPU is running  returns 0x00000000 (0000ms, 0632ms total)
T40C4 000:956 JLINK_ReadReg(CFBP) -- CPU is running
  ***** Error: Can not read register 20 (CFBP) while CPU is running  returns 0x00000000 (0000ms, 0632ms total)
T40C4 000:961 JLINK_ReadReg(FPSCR) -- CPU is running
  ***** Error: Can not read register 32 (FPSCR) while CPU is running  returns 0x00000000 (0000ms, 0632ms total)
T40C4 000:964 JLINK_ReadReg(FPS0) -- CPU is running
  ***** Error: Can not read register 33 (FPS0) while CPU is running  returns 0x00000000 (0000ms, 0632ms total)
T40C4 000:968 JLINK_ReadReg(FPS1) -- CPU is running
  ***** Error: Can not read register 34 (FPS1) while CPU is running  returns 0x00000000 (0000ms, 0632ms total)
T40C4 000:973 JLINK_ReadReg(FPS2) -- CPU is running
  ***** Error: Can not read register 35 (FPS2) while CPU is running  returns 0x00000000 (0000ms, 0632ms total)
T40C4 000:977 JLINK_ReadReg(FPS3) -- CPU is running
  ***** Error: Can not read register 36 (FPS3) while CPU is running  returns 0x00000000 (0000ms, 0632ms total)
T40C4 000:980 JLINK_ReadReg(FPS4) -- CPU is running
  ***** Error: Can not read register 37 (FPS4) while CPU is running  returns 0x00000000 (0000ms, 0632ms total)
T40C4 000:988 JLINK_ReadReg(FPS5) -- CPU is running
  ***** Error: Can not read register 38 (FPS5) while CPU is running  returns 0x00000000 (0000ms, 0632ms total)
T40C4 000:993 JLINK_ReadReg(FPS6) -- CPU is running
  ***** Error: Can not read register 39 (FPS6) while CPU is running  returns 0x00000000 (0001ms, 0633ms total)
T40C4 000:996 JLINK_ReadReg(FPS7) -- CPU is running
  ***** Error: Can not read register 40 (FPS7) while CPU is running  returns 0x00000000 (0000ms, 0633ms total)
T40C4 001:001 JLINK_ReadReg(FPS8) -- CPU is running
  ***** Error: Can not read register 41 (FPS8) while CPU is running  returns 0x00000000 (0000ms, 0633ms total)
T40C4 001:006 JLINK_ReadReg(FPS9) -- CPU is running
  ***** Error: Can not read register 42 (FPS9) while CPU is running  returns 0x00000000 (0001ms, 0634ms total)
T40C4 001:011 JLINK_ReadReg(FPS10) -- CPU is running
  ***** Error: Can not read register 43 (FPS10) while CPU is running  returns 0x00000000 (0001ms, 0635ms total)
T40C4 001:014 JLINK_ReadReg(FPS11) -- CPU is running
  ***** Error: Can not read register 44 (FPS11) while CPU is running  returns 0x00000000 (0001ms, 0636ms total)
T40C4 001:017 JLINK_ReadReg(FPS12) -- CPU is running
  ***** Error: Can not read register 45 (FPS12) while CPU is running  returns 0x00000000 (0001ms, 0637ms total)
T40C4 001:025 JLINK_ReadReg(FPS13) -- CPU is running
  ***** Error: Can not read register 46 (FPS13) while CPU is running  returns 0x00000000 (0001ms, 0638ms total)
T40C4 001:028 JLINK_ReadReg(FPS14) -- CPU is running
  ***** Error: Can not read register 47 (FPS14) while CPU is running  returns 0x00000000 (0001ms, 0639ms total)
T40C4 001:031 JLINK_ReadReg(FPS15) -- CPU is running
  ***** Error: Can not read register 48 (FPS15) while CPU is running  returns 0x00000000 (0001ms, 0640ms total)
T40C4 001:037 JLINK_ReadReg(FPS16) -- CPU is running
  ***** Error: Can not read register 49 (FPS16) while CPU is running  returns 0x00000000 (0000ms, 0640ms total)
T40C4 001:041 JLINK_ReadReg(FPS17) -- CPU is running
  ***** Error: Can not read register 50 (FPS17) while CPU is running  returns 0x00000000 (0001ms, 0641ms total)
T40C4 001:046 JLINK_ReadReg(FPS18) -- CPU is running
  ***** Error: Can not read register 51 (FPS18) while CPU is running  returns 0x00000000 (0000ms, 0641ms total)
T40C4 001:049 JLINK_ReadReg(FPS19) -- CPU is running
  ***** Error: Can not read register 52 (FPS19) while CPU is running  returns 0x00000000 (0001ms, 0642ms total)
T40C4 001:053 JLINK_ReadReg(FPS20) -- CPU is running
  ***** Error: Can not read register 53 (FPS20) while CPU is running  returns 0x00000000 (0000ms, 0642ms total)
T40C4 001:060 JLINK_ReadReg(FPS21) -- CPU is running
  ***** Error: Can not read register 54 (FPS21) while CPU is running  returns 0x00000000 (0000ms, 0642ms total)
T40C4 001:064 JLINK_ReadReg(FPS22) -- CPU is running
  ***** Error: Can not read register 55 (FPS22) while CPU is running  returns 0x00000000 (0000ms, 0642ms total)
T40C4 001:067 JLINK_ReadReg(FPS23) -- CPU is running
  ***** Error: Can not read register 56 (FPS23) while CPU is running  returns 0x00000000 (0000ms, 0642ms total)
T40C4 001:072 JLINK_ReadReg(FPS24) -- CPU is running
  ***** Error: Can not read register 57 (FPS24) while CPU is running  returns 0x00000000 (0000ms, 0642ms total)
T40C4 001:078 JLINK_ReadReg(FPS25) -- CPU is running
  ***** Error: Can not read register 58 (FPS25) while CPU is running  returns 0x00000000 (0001ms, 0643ms total)
T40C4 001:081 JLINK_ReadReg(FPS26) -- CPU is running
  ***** Error: Can not read register 59 (FPS26) while CPU is running  returns 0x00000000 (0001ms, 0644ms total)
T40C4 001:084 JLINK_ReadReg(FPS27) -- CPU is running
  ***** Error: Can not read register 60 (FPS27) while CPU is running  returns 0x00000000 (0001ms, 0645ms total)
T40C4 001:090 JLINK_ReadReg(FPS28) -- CPU is running
  ***** Error: Can not read register 61 (FPS28) while CPU is running  returns 0x00000000 (0001ms, 0646ms total)
T40C4 001:094 JLINK_ReadReg(FPS29) -- CPU is running
  ***** Error: Can not read register 62 (FPS29) while CPU is running  returns 0x00000000 (0001ms, 0647ms total)
T40C4 001:099 JLINK_ReadReg(FPS30) -- CPU is running
  ***** Error: Can not read register 63 (FPS30) while CPU is running  returns 0x00000000 (0000ms, 0647ms total)
T40C4 001:102 JLINK_ReadReg(FPS31) -- CPU is running
  ***** Error: Can not read register 64 (FPS31) while CPU is running  returns 0x00000000 (0001ms, 0648ms total)
T40C4 001:131 JLINK_IsHalted() -- CPU_ReadMem(2 bytes @ 0x20000000)  returns TRUE (0002ms, 0650ms total)
T40C4 001:133 JLINK_ReadReg(R15 (PC))  returns 0x20000000 (0000ms, 0648ms total)
T40C4 001:133 JLINK_ClrBPEx(BPHandle = 0x00000003)  returns 0x00 (0000ms, 0648ms total)
T40C4 001:133 JLINK_ReadReg(R0)  returns 0x00000000 (0000ms, 0648ms total)
T40C4 001:133 JLINK_WriteReg(R0, 0x08004000)  returns 0x00 (0000ms, 0648ms total)
T40C4 001:133 JLINK_WriteReg(R1, 0x00004000)  returns 0x00 (0000ms, 0648ms total)
T40C4 001:133 JLINK_WriteReg(R2, 0x000000FF)  returns 0x00 (0000ms, 0648ms total)
T40C4 001:133 JLINK_WriteReg(R3, 0x00000000)  returns 0x00 (0000ms, 0648ms total)
T40C4 001:133 JLINK_WriteReg(R4, 0x00000000)  returns 0x00 (0000ms, 0648ms total)
T40C4 001:133 JLINK_WriteReg(R5, 0x00000000)  returns 0x00 (0000ms, 0648ms total)
T40C4 001:133 JLINK_WriteReg(R6, 0x00000000)  returns 0x00 (0000ms, 0648ms total)
T40C4 001:133 JLINK_WriteReg(R7, 0x00000000)  returns 0x00 (0000ms, 0648ms total)
T40C4 001:133 JLINK_WriteReg(R8, 0x00000000)  returns 0x00 (0000ms, 0648ms total)
T40C4 001:133 JLINK_WriteReg(R9, 0x20000184)  returns 0x00 (0000ms, 0648ms total)
T40C4 001:133 JLINK_WriteReg(R10, 0x00000000)  returns 0x00 (0000ms, 0648ms total)
T40C4 001:133 JLINK_WriteReg(R11, 0x00000000)  returns 0x00 (0000ms, 0648ms total)
T40C4 001:133 JLINK_WriteReg(R12, 0x00000000)  returns 0x00 (0000ms, 0648ms total)
T40C4 001:133 JLINK_WriteReg(R13 (SP), 0x20001000)  returns 0x00 (0000ms, 0648ms total)
T40C4 001:134 JLINK_WriteReg(R14, 0x20000001)  returns 0x00 (0000ms, 0649ms total)
T40C4 001:134 JLINK_WriteReg(R15 (PC), 0x20000020)  returns 0x00 (0000ms, 0649ms total)
T40C4 001:134 JLINK_WriteReg(XPSR, 0x01000000)  returns 0x00 (0000ms, 0649ms total)
T40C4 001:134 JLINK_WriteReg(MSP, 0x20001000)  returns 0x00 (0000ms, 0649ms total)
T40C4 001:134 JLINK_WriteReg(PSP, 0x20001000)  returns 0x00 (0000ms, 0649ms total)
T40C4 001:134 JLINK_WriteReg(CFBP, 0x00000000)  returns 0x00 (0000ms, 0649ms total)
T40C4 001:134 JLINK_SetBPEx(Addr = 0x20000000, Type = 0xFFFFFFF2)  returns 0x00000004 (0000ms, 0649ms total)
T40C4 001:134 JLINK_Go() (0001ms, 0650ms total)
T40C4 001:135 JLINK_IsHalted() -- CPU_ReadMem(2 bytes @ 0x20000000)  returns TRUE (0002ms, 0652ms total)
T40C4 001:137 JLINK_ReadReg(R15 (PC))  returns 0x20000000 (0000ms, 0650ms total)
T40C4 001:137 JLINK_ClrBPEx(BPHandle = 0x00000004)  returns 0x00 (0000ms, 0650ms total)
T40C4 001:137 JLINK_ReadReg(R0)  returns 0x00000001 (0000ms, 0650ms total)
T40C4 001:137 JLINK_WriteReg(R0, 0x08004000)  returns 0x00 (0001ms, 0651ms total)
T40C4 001:138 JLINK_WriteReg(R1, 0x00004000)  returns 0x00 (0000ms, 0651ms total)
T40C4 001:138 JLINK_WriteReg(R2, 0x000000FF)  returns 0x00 (0000ms, 0651ms total)
T40C4 001:138 JLINK_WriteReg(R3, 0x00000000)  returns 0x00 (0000ms, 0651ms total)
T40C4 001:138 JLINK_WriteReg(R4, 0x00000000)  returns 0x00 (0000ms, 0651ms total)
T40C4 001:138 JLINK_WriteReg(R5, 0x00000000)  returns 0x00 (0000ms, 0651ms total)
T40C4 001:138 JLINK_WriteReg(R6, 0x00000000)  returns 0x00 (0000ms, 0651ms total)
T40C4 001:138 JLINK_WriteReg(R7, 0x00000000)  returns 0x00 (0000ms, 0651ms total)
T40C4 001:138 JLINK_WriteReg(R8, 0x00000000)  returns 0x00 (0000ms, 0651ms total)
T40C4 001:138 JLINK_WriteReg(R9, 0x20000184)  returns 0x00 (0000ms, 0651ms total)
T40C4 001:138 JLINK_WriteReg(R10, 0x00000000)  returns 0x00 (0000ms, 0651ms total)
T40C4 001:138 JLINK_WriteReg(R11, 0x00000000)  returns 0x00 (0000ms, 0651ms total)
T40C4 001:138 JLINK_WriteReg(R12, 0x00000000)  returns 0x00 (0000ms, 0651ms total)
T40C4 001:138 JLINK_WriteReg(R13 (SP), 0x20001000)  returns 0x00 (0000ms, 0651ms total)
T40C4 001:138 JLINK_WriteReg(R14, 0x20000001)  returns 0x00 (0000ms, 0651ms total)
T40C4 001:138 JLINK_WriteReg(R15 (PC), 0x200000C6)  returns 0x00 (0000ms, 0651ms total)
T40C4 001:138 JLINK_WriteReg(XPSR, 0x01000000)  returns 0x00 (0000ms, 0651ms total)
T40C4 001:138 JLINK_WriteReg(MSP, 0x20001000)  returns 0x00 (0000ms, 0651ms total)
T40C4 001:138 JLINK_WriteReg(PSP, 0x20001000)  returns 0x00 (0000ms, 0651ms total)
T40C4 001:138 JLINK_WriteReg(CFBP, 0x00000000)  returns 0x00 (0000ms, 0651ms total)
T40C4 001:138 JLINK_SetBPEx(Addr = 0x20000000, Type = 0xFFFFFFF2)  returns 0x00000005 (0000ms, 0651ms total)
T40C4 001:138 JLINK_Go() (0001ms, 0652ms total)
T40C4 001:139 JLINK_IsHalted()  returns FALSE (0001ms, 0653ms total)
T40C4 001:165 JLINK_IsHalted()  returns FALSE (0000ms, 0652ms total)
T40C4 001:169 JLINK_IsHalted()  returns FALSE (0000ms, 0652ms total)
T40C4 001:171 JLINK_IsHalted()  returns FALSE (0000ms, 0652ms total)
T40C4 001:175 JLINK_IsHalted()  returns FALSE (0000ms, 0652ms total)
T40C4 001:177 JLINK_IsHalted()  returns FALSE (0000ms, 0652ms total)
T40C4 001:179 JLINK_IsHalted()  returns FALSE (0000ms, 0652ms total)
T40C4 001:181 JLINK_IsHalted()  returns FALSE (0000ms, 0652ms total)
T40C4 001:183 JLINK_IsHalted()  returns FALSE (0000ms, 0652ms total)
T40C4 001:185 JLINK_IsHalted()  returns FALSE (0000ms, 0652ms total)
T40C4 001:187 JLINK_IsHalted()  returns FALSE (0000ms, 0652ms total)
T40C4 001:204 JLINK_IsHalted()  returns FALSE (0000ms, 0652ms total)
T40C4 001:206 JLINK_IsHalted()  returns FALSE (0000ms, 0652ms total)
T40C4 001:208 JLINK_IsHalted()  returns FALSE (0000ms, 0652ms total)
T40C4 001:213 JLINK_IsHalted()  returns FALSE (0000ms, 0652ms total)
T40C4 001:215 JLINK_IsHalted()  returns FALSE (0000ms, 0652ms total)
T40C4 001:217 JLINK_IsHalted()  returns FALSE (0000ms, 0652ms total)
T40C4 001:219 JLINK_IsHalted()  returns FALSE (0000ms, 0652ms total)
T40C4 001:225 JLINK_IsHalted()  returns FALSE (0000ms, 0652ms total)
T40C4 001:227 JLINK_IsHalted()  returns FALSE (0000ms, 0652ms total)
T40C4 001:229 JLINK_IsHalted()  returns FALSE (0000ms, 0652ms total)
T40C4 001:231 JLINK_IsHalted()  returns FALSE (0000ms, 0652ms total)
T40C4 001:233 JLINK_IsHalted()  returns FALSE (0000ms, 0652ms total)
T40C4 001:238 JLINK_IsHalted()  returns FALSE (0000ms, 0652ms total)
T40C4 001:240 JLINK_IsHalted()  returns FALSE (0000ms, 0652ms total)
T40C4 001:242 JLINK_IsHalted()  returns FALSE (0000ms, 0652ms total)
T40C4 001:244 JLINK_IsHalted()  returns FALSE (0000ms, 0652ms total)
T40C4 001:246 JLINK_IsHalted()  returns FALSE (0000ms, 0652ms total)
T40C4 001:248 JLINK_IsHalted()  returns FALSE (0000ms, 0652ms total)
T40C4 001:250 JLINK_IsHalted()  returns FALSE (0000ms, 0652ms total)
T40C4 001:252 JLINK_IsHalted()  returns FALSE (0000ms, 0652ms total)
T40C4 001:270 JLINK_IsHalted()  returns FALSE (0000ms, 0652ms total)
T40C4 001:272 JLINK_IsHalted()  returns FALSE (0000ms, 0652ms total)
T40C4 001:276 JLINK_IsHalted()  returns FALSE (0000ms, 0652ms total)
T40C4 001:279 JLINK_IsHalted()  returns FALSE (0000ms, 0652ms total)
T40C4 001:281 JLINK_IsHalted()  returns FALSE (0000ms, 0652ms total)
T40C4 001:287 JLINK_IsHalted()  returns FALSE (0000ms, 0652ms total)
T40C4 001:289 JLINK_IsHalted()  returns FALSE (0000ms, 0652ms total)
T40C4 001:293 JLINK_IsHalted()  returns FALSE (0000ms, 0652ms total)
T40C4 001:296 JLINK_IsHalted()  returns FALSE (0000ms, 0652ms total)
T40C4 001:321 JLINK_IsHalted()  returns FALSE (0000ms, 0652ms total)
T40C4 001:326 JLINK_IsHalted()  returns FALSE (0000ms, 0652ms total)
T40C4 001:328 JLINK_IsHalted()  returns FALSE (0000ms, 0652ms total)
T40C4 001:331 JLINK_IsHalted()  returns FALSE (0000ms, 0652ms total)
T40C4 001:333 JLINK_IsHalted()  returns FALSE (0000ms, 0652ms total)
T40C4 001:339 JLINK_IsHalted()  returns FALSE (0000ms, 0652ms total)
T40C4 001:344 JLINK_IsHalted()  returns FALSE (0000ms, 0652ms total)
T40C4 001:348 JLINK_IsHalted()  returns FALSE (0000ms, 0652ms total)
T40C4 001:351 JLINK_IsHalted()  returns FALSE (0000ms, 0652ms total)
T40C4 001:354 JLINK_IsHalted()  returns FALSE (0000ms, 0652ms total)
T40C4 001:356 JLINK_IsHalted()  returns FALSE (0000ms, 0652ms total)
T40C4 001:359 JLINK_IsHalted()  returns FALSE (0000ms, 0652ms total)
T40C4 001:365 JLINK_IsHalted()  returns FALSE (0000ms, 0652ms total)
T40C4 001:367 JLINK_IsHalted()  returns FALSE (0000ms, 0652ms total)
T40C4 001:371 JLINK_IsHalted()  returns FALSE (0000ms, 0652ms total)
T40C4 001:372 JLINK_IsHalted()  returns FALSE (0000ms, 0652ms total)
T40C4 001:376 JLINK_IsHalted()  returns FALSE (0000ms, 0652ms total)
T40C4 001:379 JLINK_IsHalted()  returns FALSE (0000ms, 0652ms total)
T40C4 001:382 JLINK_IsHalted()  returns FALSE (0000ms, 0652ms total)
T40C4 001:387 JLINK_IsHalted()  returns FALSE (0000ms, 0652ms total)
T40C4 001:391 JLINK_IsHalted()  returns FALSE (0000ms, 0652ms total)
T40C4 001:399 JLINK_IsHalted()  returns FALSE (0000ms, 0652ms total)
T40C4 001:402 JLINK_IsHalted()  returns FALSE (0000ms, 0652ms total)
T40C4 001:404 JLINK_IsHalted()  returns FALSE (0000ms, 0652ms total)
T40C4 001:420 JLINK_IsHalted()  returns FALSE (0000ms, 0652ms total)
T40C4 001:422 JLINK_IsHalted()  returns FALSE (0000ms, 0652ms total)
T40C4 001:424 JLINK_IsHalted()  returns FALSE (0000ms, 0652ms total)
T40C4 001:431 JLINK_IsHalted()  returns FALSE (0000ms, 0652ms total)
T40C4 001:433 JLINK_IsHalted()  returns FALSE (0000ms, 0652ms total)
T40C4 001:435 JLINK_IsHalted()  returns FALSE (0000ms, 0652ms total)
T40C4 001:437 JLINK_IsHalted()  returns FALSE (0000ms, 0652ms total)
T40C4 001:439 JLINK_IsHalted()  returns FALSE (0000ms, 0652ms total)
T40C4 001:441 JLINK_IsHalted()  returns FALSE (0000ms, 0652ms total)
T40C4 001:443 JLINK_IsHalted()  returns FALSE (0000ms, 0652ms total)
T40C4 001:445 JLINK_IsHalted()  returns FALSE (0000ms, 0652ms total)
T40C4 001:451 JLINK_IsHalted()  returns FALSE (0000ms, 0652ms total)
T40C4 001:453 JLINK_IsHalted()  returns FALSE (0000ms, 0652ms total)
T40C4 001:455 JLINK_IsHalted()  returns FALSE (0000ms, 0652ms total)
T40C4 001:461 JLINK_IsHalted()  returns FALSE (0000ms, 0652ms total)
T40C4 001:463 JLINK_IsHalted()  returns FALSE (0000ms, 0652ms total)
T40C4 001:465 JLINK_IsHalted()  returns FALSE (0000ms, 0652ms total)
T40C4 001:467 JLINK_IsHalted()  returns FALSE (0000ms, 0652ms total)
T40C4 001:469 JLINK_IsHalted()  returns FALSE (0000ms, 0652ms total)
T40C4 001:471 JLINK_IsHalted()  returns FALSE (0000ms, 0652ms total)
T40C4 001:473 JLINK_IsHalted()  returns FALSE (0000ms, 0652ms total)
T40C4 001:475 JLINK_IsHalted()  returns FALSE (0000ms, 0652ms total)
T40C4 001:477 JLINK_IsHalted()  returns FALSE (0000ms, 0652ms total)
T40C4 001:482 JLINK_IsHalted()  returns FALSE (0000ms, 0652ms total)
T40C4 001:484 JLINK_IsHalted() -- CPU_ReadMem(2 bytes @ 0x20000000)  returns TRUE (0002ms, 0654ms total)
T40C4 001:486 JLINK_ReadReg(R15 (PC))  returns 0x20000000 (0000ms, 0652ms total)
T40C4 001:486 JLINK_ClrBPEx(BPHandle = 0x00000005)  returns 0x00 (0000ms, 0652ms total)
T40C4 001:486 JLINK_ReadReg(R0)  returns 0x00000000 (0000ms, 0652ms total)
T40C4 001:487 JLINK_WriteReg(R0, 0x08008000)  returns 0x00 (0000ms, 0652ms total)
T40C4 001:487 JLINK_WriteReg(R1, 0x00004000)  returns 0x00 (0000ms, 0652ms total)
T40C4 001:487 JLINK_WriteReg(R2, 0x000000FF)  returns 0x00 (0000ms, 0652ms total)
T40C4 001:487 JLINK_WriteReg(R3, 0x00000000)  returns 0x00 (0000ms, 0652ms total)
T40C4 001:487 JLINK_WriteReg(R4, 0x00000000)  returns 0x00 (0000ms, 0652ms total)
T40C4 001:487 JLINK_WriteReg(R5, 0x00000000)  returns 0x00 (0000ms, 0652ms total)
T40C4 001:487 JLINK_WriteReg(R6, 0x00000000)  returns 0x00 (0000ms, 0652ms total)
T40C4 001:487 JLINK_WriteReg(R7, 0x00000000)  returns 0x00 (0000ms, 0652ms total)
T40C4 001:487 JLINK_WriteReg(R8, 0x00000000)  returns 0x00 (0000ms, 0652ms total)
T40C4 001:487 JLINK_WriteReg(R9, 0x20000184)  returns 0x00 (0000ms, 0652ms total)
T40C4 001:487 JLINK_WriteReg(R10, 0x00000000)  returns 0x00 (0000ms, 0652ms total)
T40C4 001:487 JLINK_WriteReg(R11, 0x00000000)  returns 0x00 (0000ms, 0652ms total)
T40C4 001:487 JLINK_WriteReg(R12, 0x00000000)  returns 0x00 (0000ms, 0652ms total)
T40C4 001:487 JLINK_WriteReg(R13 (SP), 0x20001000)  returns 0x00 (0000ms, 0652ms total)
T40C4 001:487 JLINK_WriteReg(R14, 0x20000001)  returns 0x00 (0000ms, 0652ms total)
T40C4 001:487 JLINK_WriteReg(R15 (PC), 0x20000020)  returns 0x00 (0000ms, 0652ms total)
T40C4 001:487 JLINK_WriteReg(XPSR, 0x01000000)  returns 0x00 (0000ms, 0652ms total)
T40C4 001:487 JLINK_WriteReg(MSP, 0x20001000)  returns 0x00 (0000ms, 0652ms total)
T40C4 001:487 JLINK_WriteReg(PSP, 0x20001000)  returns 0x00 (0000ms, 0652ms total)
T40C4 001:487 JLINK_WriteReg(CFBP, 0x00000000)  returns 0x00 (0000ms, 0652ms total)
T40C4 001:487 JLINK_SetBPEx(Addr = 0x20000000, Type = 0xFFFFFFF2)  returns 0x00000006 (0000ms, 0652ms total)
T40C4 001:487 JLINK_Go() (0001ms, 0653ms total)
T40C4 001:488 JLINK_IsHalted() -- CPU_ReadMem(2 bytes @ 0x20000000)  returns TRUE (0002ms, 0655ms total)
T40C4 001:490 JLINK_ReadReg(R15 (PC))  returns 0x20000000 (0000ms, 0653ms total)
T40C4 001:490 JLINK_ClrBPEx(BPHandle = 0x00000006)  returns 0x00 (0000ms, 0653ms total)
T40C4 001:490 JLINK_ReadReg(R0)  returns 0x00000001 (0000ms, 0653ms total)
T40C4 001:490 JLINK_WriteReg(R0, 0x08008000)  returns 0x00 (0000ms, 0653ms total)
T40C4 001:490 JLINK_WriteReg(R1, 0x00004000)  returns 0x00 (0000ms, 0653ms total)
T40C4 001:490 JLINK_WriteReg(R2, 0x000000FF)  returns 0x00 (0000ms, 0653ms total)
T40C4 001:490 JLINK_WriteReg(R3, 0x00000000)  returns 0x00 (0000ms, 0653ms total)
T40C4 001:490 JLINK_WriteReg(R4, 0x00000000)  returns 0x00 (0000ms, 0653ms total)
T40C4 001:490 JLINK_WriteReg(R5, 0x00000000)  returns 0x00 (0000ms, 0653ms total)
T40C4 001:490 JLINK_WriteReg(R6, 0x00000000)  returns 0x00 (0000ms, 0653ms total)
T40C4 001:490 JLINK_WriteReg(R7, 0x00000000)  returns 0x00 (0000ms, 0653ms total)
T40C4 001:490 JLINK_WriteReg(R8, 0x00000000)  returns 0x00 (0000ms, 0653ms total)
T40C4 001:490 JLINK_WriteReg(R9, 0x20000184)  returns 0x00 (0000ms, 0653ms total)
T40C4 001:490 JLINK_WriteReg(R10, 0x00000000)  returns 0x00 (0000ms, 0653ms total)
T40C4 001:490 JLINK_WriteReg(R11, 0x00000000)  returns 0x00 (0000ms, 0653ms total)
T40C4 001:490 JLINK_WriteReg(R12, 0x00000000)  returns 0x00 (0000ms, 0653ms total)
T40C4 001:490 JLINK_WriteReg(R13 (SP), 0x20001000)  returns 0x00 (0000ms, 0653ms total)
T40C4 001:490 JLINK_WriteReg(R14, 0x20000001)  returns 0x00 (0000ms, 0653ms total)
T40C4 001:490 JLINK_WriteReg(R15 (PC), 0x200000C6)  returns 0x00 (0000ms, 0653ms total)
T40C4 001:490 JLINK_WriteReg(XPSR, 0x01000000)  returns 0x00 (0000ms, 0653ms total)
T40C4 001:490 JLINK_WriteReg(MSP, 0x20001000)  returns 0x00 (0000ms, 0653ms total)
T40C4 001:490 JLINK_WriteReg(PSP, 0x20001000)  returns 0x00 (0000ms, 0653ms total)
T40C4 001:491 JLINK_WriteReg(CFBP, 0x00000000)  returns 0x00 (0000ms, 0653ms total)
T40C4 001:491 JLINK_SetBPEx(Addr = 0x20000000, Type = 0xFFFFFFF2)  returns 0x00000007 (0000ms, 0653ms total)
T40C4 001:491 JLINK_Go() (0001ms, 0654ms total)
T40C4 001:492 JLINK_IsHalted()  returns FALSE (0000ms, 0654ms total)
T40C4 001:496 JLINK_IsHalted()  returns FALSE (0000ms, 0654ms total)
T40C4 001:498 JLINK_IsHalted()  returns FALSE (0000ms, 0654ms total)
T40C4 001:500 JLINK_IsHalted()  returns FALSE (0000ms, 0654ms total)
T40C4 001:502 JLINK_IsHalted()  returns FALSE (0000ms, 0654ms total)
T40C4 001:504 JLINK_IsHalted()  returns FALSE (0003ms, 0657ms total)
T40C4 001:513 JLINK_IsHalted()  returns FALSE (0000ms, 0654ms total)
T40C4 001:515 JLINK_IsHalted()  returns FALSE (0000ms, 0654ms total)
T40C4 001:531 JLINK_IsHalted()  returns FALSE (0000ms, 0654ms total)
T40C4 001:533 JLINK_IsHalted()  returns FALSE (0000ms, 0654ms total)
T40C4 001:535 JLINK_IsHalted()  returns FALSE (0000ms, 0654ms total)
T40C4 001:539 JLINK_IsHalted()  returns FALSE (0000ms, 0654ms total)
T40C4 001:541 JLINK_IsHalted()  returns FALSE (0000ms, 0654ms total)
T40C4 001:543 JLINK_IsHalted()  returns FALSE (0000ms, 0654ms total)
T40C4 001:545 JLINK_IsHalted()  returns FALSE (0000ms, 0654ms total)
T40C4 001:547 JLINK_IsHalted()  returns FALSE (0000ms, 0654ms total)
T40C4 001:553 JLINK_IsHalted()  returns FALSE (0001ms, 0655ms total)
T40C4 001:556 JLINK_IsHalted()  returns FALSE (0000ms, 0654ms total)
T40C4 001:558 JLINK_IsHalted()  returns FALSE (0000ms, 0654ms total)
T40C4 001:560 JLINK_IsHalted()  returns FALSE (0000ms, 0654ms total)
T40C4 001:562 JLINK_IsHalted()  returns FALSE (0000ms, 0654ms total)
T40C4 001:565 JLINK_IsHalted()  returns FALSE (0000ms, 0655ms total)
T40C4 001:569 JLINK_IsHalted()  returns FALSE (0000ms, 0655ms total)
T40C4 001:574 JLINK_IsHalted()  returns FALSE (0000ms, 0655ms total)
T40C4 001:578 JLINK_IsHalted()  returns FALSE (0000ms, 0655ms total)
T40C4 001:587 JLINK_IsHalted()  returns FALSE (0000ms, 0655ms total)
T40C4 001:591 JLINK_IsHalted()  returns FALSE (0000ms, 0655ms total)
T40C4 001:594 JLINK_IsHalted()  returns FALSE (0000ms, 0655ms total)
T40C4 001:599 JLINK_IsHalted()  returns FALSE (0000ms, 0655ms total)
T40C4 001:601 JLINK_IsHalted()  returns FALSE (0000ms, 0655ms total)
T40C4 001:607 JLINK_IsHalted()  returns FALSE (0000ms, 0655ms total)
T40C4 001:609 JLINK_IsHalted()  returns FALSE (0000ms, 0655ms total)
T40C4 001:616 JLINK_IsHalted()  returns FALSE (0000ms, 0655ms total)
T40C4 001:620 JLINK_IsHalted()  returns FALSE (0000ms, 0655ms total)
T40C4 001:623 JLINK_IsHalted()  returns FALSE (0000ms, 0655ms total)
T40C4 001:644 JLINK_IsHalted()  returns FALSE (0000ms, 0655ms total)
T40C4 001:650 JLINK_IsHalted()  returns FALSE (0000ms, 0655ms total)
T40C4 001:652 JLINK_IsHalted()  returns FALSE (0000ms, 0655ms total)
T40C4 001:655 JLINK_IsHalted()  returns FALSE (0000ms, 0655ms total)
T40C4 001:662 JLINK_IsHalted()  returns FALSE (0000ms, 0655ms total)
T40C4 001:664 JLINK_IsHalted()  returns FALSE (0000ms, 0655ms total)
T40C4 001:666 JLINK_IsHalted()  returns FALSE (0000ms, 0655ms total)
T40C4 001:668 JLINK_IsHalted()  returns FALSE (0000ms, 0655ms total)
T40C4 001:671 JLINK_IsHalted()  returns FALSE (0000ms, 0655ms total)
T40C4 001:673 JLINK_IsHalted()  returns FALSE (0000ms, 0655ms total)
T40C4 001:680 JLINK_IsHalted()  returns FALSE (0000ms, 0655ms total)
T40C4 001:683 JLINK_IsHalted()  returns FALSE (0000ms, 0655ms total)
T40C4 001:686 JLINK_IsHalted()  returns FALSE (0000ms, 0655ms total)
T40C4 001:688 JLINK_IsHalted()  returns FALSE (0000ms, 0655ms total)
T40C4 001:690 JLINK_IsHalted()  returns FALSE (0000ms, 0655ms total)
T40C4 001:692 JLINK_IsHalted()  returns FALSE (0000ms, 0655ms total)
T40C4 001:694 JLINK_IsHalted()  returns FALSE (0000ms, 0655ms total)
T40C4 001:696 JLINK_IsHalted()  returns FALSE (0000ms, 0655ms total)
T40C4 001:700 JLINK_IsHalted()  returns FALSE (0000ms, 0655ms total)
T40C4 001:701 JLINK_IsHalted()  returns FALSE (0000ms, 0655ms total)
T40C4 001:704 JLINK_IsHalted()  returns FALSE (0000ms, 0655ms total)
T40C4 001:705 JLINK_IsHalted()  returns FALSE (0000ms, 0655ms total)
T40C4 001:710 JLINK_IsHalted()  returns FALSE (0000ms, 0655ms total)
T40C4 001:712 JLINK_IsHalted()  returns FALSE (0000ms, 0655ms total)
T40C4 001:714 JLINK_IsHalted()  returns FALSE (0000ms, 0655ms total)
T40C4 001:716 JLINK_IsHalted()  returns FALSE (0000ms, 0655ms total)
T40C4 001:718 JLINK_IsHalted()  returns FALSE (0000ms, 0655ms total)
T40C4 001:721 JLINK_IsHalted()  returns FALSE (0000ms, 0655ms total)
T40C4 001:723 JLINK_IsHalted()  returns FALSE (0000ms, 0655ms total)
T40C4 001:725 JLINK_IsHalted()  returns FALSE (0000ms, 0655ms total)
T40C4 001:727 JLINK_IsHalted()  returns FALSE (0000ms, 0655ms total)
T40C4 001:731 JLINK_IsHalted()  returns FALSE (0000ms, 0655ms total)
T40C4 001:733 JLINK_IsHalted()  returns FALSE (0000ms, 0655ms total)
T40C4 001:735 JLINK_IsHalted()  returns FALSE (0000ms, 0655ms total)
T40C4 001:747 JLINK_IsHalted()  returns FALSE (0000ms, 0655ms total)
T40C4 001:749 JLINK_IsHalted()  returns FALSE (0000ms, 0655ms total)
T40C4 001:751 JLINK_IsHalted()  returns FALSE (0000ms, 0655ms total)
T40C4 001:754 JLINK_IsHalted()  returns FALSE (0000ms, 0655ms total)
T40C4 001:755 JLINK_IsHalted()  returns FALSE (0000ms, 0655ms total)
T40C4 001:762 JLINK_IsHalted()  returns FALSE (0000ms, 0655ms total)
T40C4 001:765 JLINK_IsHalted()  returns FALSE (0000ms, 0655ms total)
T40C4 001:773 JLINK_IsHalted()  returns FALSE (0000ms, 0655ms total)
T40C4 001:777 JLINK_IsHalted()  returns FALSE (0000ms, 0655ms total)
T40C4 001:780 JLINK_IsHalted()  returns FALSE (0000ms, 0655ms total)
T40C4 001:782 JLINK_IsHalted()  returns FALSE (0000ms, 0655ms total)
T40C4 001:791 JLINK_IsHalted()  returns FALSE (0000ms, 0655ms total)
T40C4 001:793 JLINK_IsHalted()  returns FALSE (0000ms, 0655ms total)
T40C4 001:796 JLINK_IsHalted()  returns FALSE (0000ms, 0655ms total)
T40C4 001:798 JLINK_IsHalted()  returns FALSE (0000ms, 0655ms total)
T40C4 001:809 JLINK_IsHalted()  returns FALSE (0000ms, 0655ms total)
T40C4 001:812 JLINK_IsHalted()  returns FALSE (0000ms, 0655ms total)
T40C4 001:814 JLINK_IsHalted()  returns FALSE (0000ms, 0655ms total)
T40C4 001:821 JLINK_IsHalted()  returns FALSE (0000ms, 0655ms total)
T40C4 001:825 JLINK_IsHalted()  returns FALSE (0000ms, 0655ms total)
T40C4 001:828 JLINK_IsHalted()  returns FALSE (0000ms, 0655ms total)
T40C4 001:830 JLINK_IsHalted()  returns FALSE (0000ms, 0655ms total)
T40C4 001:840 JLINK_IsHalted()  returns FALSE (0000ms, 0655ms total)
T40C4 001:842 JLINK_IsHalted()  returns FALSE (0000ms, 0655ms total)
T40C4 001:845 JLINK_IsHalted()  returns FALSE (0000ms, 0655ms total)
T40C4 001:872 JLINK_IsHalted() -- CPU_ReadMem(2 bytes @ 0x20000000)  returns TRUE (0003ms, 0658ms total)
T40C4 001:875 JLINK_ReadReg(R15 (PC))  returns 0x20000000 (0000ms, 0655ms total)
T40C4 001:875 JLINK_ClrBPEx(BPHandle = 0x00000007)  returns 0x00 (0000ms, 0655ms total)
T40C4 001:875 JLINK_ReadReg(R0)  returns 0x00000000 (0000ms, 0655ms total)
T40C4 001:876 JLINK_WriteReg(R0, 0x0800C000)  returns 0x00 (0000ms, 0655ms total)
T40C4 001:876 JLINK_WriteReg(R1, 0x00004000)  returns 0x00 (0000ms, 0655ms total)
T40C4 001:876 JLINK_WriteReg(R2, 0x000000FF)  returns 0x00 (0000ms, 0655ms total)
T40C4 001:876 JLINK_WriteReg(R3, 0x00000000)  returns 0x00 (0000ms, 0655ms total)
T40C4 001:876 JLINK_WriteReg(R4, 0x00000000)  returns 0x00 (0000ms, 0655ms total)
T40C4 001:876 JLINK_WriteReg(R5, 0x00000000)  returns 0x00 (0000ms, 0655ms total)
T40C4 001:876 JLINK_WriteReg(R6, 0x00000000)  returns 0x00 (0000ms, 0655ms total)
T40C4 001:876 JLINK_WriteReg(R7, 0x00000000)  returns 0x00 (0000ms, 0655ms total)
T40C4 001:876 JLINK_WriteReg(R8, 0x00000000)  returns 0x00 (0000ms, 0655ms total)
T40C4 001:876 JLINK_WriteReg(R9, 0x20000184)  returns 0x00 (0000ms, 0655ms total)
T40C4 001:876 JLINK_WriteReg(R10, 0x00000000)  returns 0x00 (0000ms, 0655ms total)
T40C4 001:876 JLINK_WriteReg(R11, 0x00000000)  returns 0x00 (0000ms, 0655ms total)
T40C4 001:876 JLINK_WriteReg(R12, 0x00000000)  returns 0x00 (0000ms, 0655ms total)
T40C4 001:876 JLINK_WriteReg(R13 (SP), 0x20001000)  returns 0x00 (0000ms, 0655ms total)
T40C4 001:876 JLINK_WriteReg(R14, 0x20000001)  returns 0x00 (0000ms, 0655ms total)
T40C4 001:876 JLINK_WriteReg(R15 (PC), 0x20000020)  returns 0x00 (0000ms, 0655ms total)
T40C4 001:876 JLINK_WriteReg(XPSR, 0x01000000)  returns 0x00 (0000ms, 0655ms total)
T40C4 001:876 JLINK_WriteReg(MSP, 0x20001000)  returns 0x00 (0000ms, 0655ms total)
T40C4 001:876 JLINK_WriteReg(PSP, 0x20001000)  returns 0x00 (0000ms, 0655ms total)
T40C4 001:876 JLINK_WriteReg(CFBP, 0x00000000)  returns 0x00 (0000ms, 0655ms total)
T40C4 001:876 JLINK_SetBPEx(Addr = 0x20000000, Type = 0xFFFFFFF2)  returns 0x00000008 (0000ms, 0655ms total)
T40C4 001:876 JLINK_Go() (0001ms, 0656ms total)
T40C4 001:877 JLINK_IsHalted() -- CPU_ReadMem(2 bytes @ 0x20000000)  returns TRUE (0003ms, 0659ms total)
T40C4 001:880 JLINK_ReadReg(R15 (PC))  returns 0x20000000 (0000ms, 0656ms total)
T40C4 001:880 JLINK_ClrBPEx(BPHandle = 0x00000008)  returns 0x00 (0000ms, 0656ms total)
T40C4 001:880 JLINK_ReadReg(R0)  returns 0x00000001 (0000ms, 0656ms total)
T40C4 001:880 JLINK_WriteReg(R0, 0x0800C000)  returns 0x00 (0000ms, 0656ms total)
T40C4 001:880 JLINK_WriteReg(R1, 0x00004000)  returns 0x00 (0000ms, 0656ms total)
T40C4 001:880 JLINK_WriteReg(R2, 0x000000FF)  returns 0x00 (0000ms, 0656ms total)
T40C4 001:880 JLINK_WriteReg(R3, 0x00000000)  returns 0x00 (0000ms, 0656ms total)
T40C4 001:880 JLINK_WriteReg(R4, 0x00000000)  returns 0x00 (0000ms, 0656ms total)
T40C4 001:880 JLINK_WriteReg(R5, 0x00000000)  returns 0x00 (0000ms, 0656ms total)
T40C4 001:880 JLINK_WriteReg(R6, 0x00000000)  returns 0x00 (0000ms, 0656ms total)
T40C4 001:880 JLINK_WriteReg(R7, 0x00000000)  returns 0x00 (0000ms, 0656ms total)
T40C4 001:880 JLINK_WriteReg(R8, 0x00000000)  returns 0x00 (0000ms, 0656ms total)
T40C4 001:880 JLINK_WriteReg(R9, 0x20000184)  returns 0x00 (0000ms, 0656ms total)
T40C4 001:880 JLINK_WriteReg(R10, 0x00000000)  returns 0x00 (0000ms, 0656ms total)
T40C4 001:880 JLINK_WriteReg(R11, 0x00000000)  returns 0x00 (0000ms, 0656ms total)
T40C4 001:880 JLINK_WriteReg(R12, 0x00000000)  returns 0x00 (0000ms, 0656ms total)
T40C4 001:880 JLINK_WriteReg(R13 (SP), 0x20001000)  returns 0x00 (0000ms, 0656ms total)
T40C4 001:880 JLINK_WriteReg(R14, 0x20000001)  returns 0x00 (0000ms, 0656ms total)
T40C4 001:880 JLINK_WriteReg(R15 (PC), 0x200000C6)  returns 0x00 (0000ms, 0656ms total)
T40C4 001:880 JLINK_WriteReg(XPSR, 0x01000000)  returns 0x00 (0000ms, 0656ms total)
T40C4 001:880 JLINK_WriteReg(MSP, 0x20001000)  returns 0x00 (0000ms, 0656ms total)
T40C4 001:880 JLINK_WriteReg(PSP, 0x20001000)  returns 0x00 (0000ms, 0656ms total)
T40C4 001:880 JLINK_WriteReg(CFBP, 0x00000000)  returns 0x00 (0000ms, 0656ms total)
